!Created with skrf (http://scikit-rf.org).
# GHz S RI R 50.0 
! Port[1] = 1
!freq ReS11 ImS11
1.5 0.22771463027988142 -0.12137591671085418
1.50201005025126 0.2330671376723347 -0.0979814738188989
1.50402010050251 0.24097643510620656 -0.07459550781197381
1.50603015075377 0.2516511116636056 -0.05142135799596914
1.50804020100503 0.26526752713298546 -0.02878078804190677
1.51005025125628 0.28194366190846254 -0.007081107600421646
1.51206030150754 0.3017227219749399 0.013210393616671146
1.5140703517587901 0.3245626342493094 0.031589276285533256
1.51608040201005 0.3503317465342584 0.047535840169515294
1.51809045226131 0.3788104562388045 0.06053332864716549
1.5201005025125602 0.40969314970771664 0.07007815336127125
1.52211055276382 0.4425807173975569 0.07568439819777534
1.52412060301508 0.4769613924520767 0.07689595540291994
1.52613065326633 0.5121949019618972 0.07331922380163375
1.52814070351759 0.5475201198708769 0.06467107461379253
1.53015075376884 0.5820895554006845 0.05082226655157454
1.5321608040201 0.615017800298525 0.031822952076527515
1.53417085427136 0.6454328791051729 0.007909967742358122
1.53618090452261 0.6725273703459802 -0.020501345453025274
1.53819095477387 0.6956069334430244 -0.0528407918109206
1.54020100502513 0.7141298817233933 -0.0884220174599404
1.54221105527638 0.7277292966179664 -0.1264914766922957
1.54422110552764 0.7362110631672545 -0.16627812826444768
1.54623115577889 0.7395263819435665 -0.20703187336388126
1.54824120603015 0.7377245692696669 -0.24803996584026808
1.55025125628141 0.730899734403183 -0.2886162232500764
1.55226130653266 0.7191508435285615 -0.32806796926045206
1.55427135678392 0.702575440120521 -0.3656589079877062
1.55628140703518 0.6813082294973027 -0.4005971767467364
1.55829145728643 0.6555931523732542 -0.4320744705899112
1.5603015075376898 0.6258498965871608 -0.4593537409394127
1.56231155778894 0.5926901205621992 -0.4818644843962184
1.5643216080402 0.5568711602804866 -0.4992562050216626
1.56633165829146 0.519216227491869 -0.5113942551081047
1.56834170854271 0.4805397590410258 -0.5183190521966735
1.57035175879397 0.441597372708899 -0.5201971649460704
1.57236180904523 0.40306006643519326 -0.5172797869799991
1.57437185929648 0.36550496382194286 -0.5098713834256577
1.57638190954774 0.32941586425101194 -0.49830611904275113
1.578391959799 0.2951896226272151 -0.48292947636324723
1.58040201005025 0.26314626290974535 -0.4640836812410621
1.58241206030151 0.23354157754974605 -0.4420965167924442
1.58442211055276 0.20658128559981942 -0.41727355061516125
1.58643216080402 0.18243595578343275 -0.3898939357257815
1.58844221105528 0.1612559171390819 -0.3602099598213229
1.59045226130653 0.14318526734912082 -0.32845038932001974
1.59246231155779 0.12837401287987488 -0.2948272839438169
1.59447236180905 0.1169876535667337 -0.2595455563188345
1.5964824120603 0.10921408891314922 -0.22281464453976318
1.59849246231156 0.10526790255582247 -0.1848623368773119
1.6005025125628103 0.10539144586391179 -0.14595126168686043
1.60251256281407 0.10985122348841356 -0.10639815215613871
1.60452261306533 0.1189276567172119 -0.06659497915223185
1.60653266331658 0.1328964906189302 -0.027030031376854884
1.60854271356784 0.15200066652708052 0.01169379114026366
1.6105527638191 0.1764123305138284 0.0488468204429679
1.61256281407035 0.2061857395737672 0.08357014425281535
1.61457286432161 0.24120274975279374 0.11488604152654981
1.61658291457286 0.2811131710190691 0.1417246128471666
1.61859296482412 0.3252740786180715 0.16297129525541504
1.62060301507538 0.37269745586722325 0.17754097409438901
1.62261306532663 0.42202327151728075 0.18448112158347876
1.62462311557789 0.4715411975036486 0.1830988357022015
1.62663316582915 0.5192874760579502 0.17309909392555803
1.6286432160804 0.5632422044896618 0.15471268305271524
1.63065326633166 0.6016293551107255 0.12877352549041574
1.63266331658291 0.6332518977189814 0.09668164189535218
1.63467336683417 0.6577075509136692 0.060203061706642004
1.63668341708543 0.6753479688795262 0.021149752664751977
1.63869346733668 0.6870124727744987 -0.01892015446819462
1.64070351758794 0.6937111717896631 -0.05886140511803405
1.6427135678392 0.6964010815456061 -0.09795081252067007
1.64472361809045 0.6958825933760379 -0.1358122418552765
1.6467336683417102 0.6927761137571697 -0.17232155320914117
1.64874371859296 0.6875344772501797 -0.20752390379331254
1.65075376884422 0.6804648482744632 -0.24157131757250294
1.6527638190954803 0.6717491752916208 -0.2746777201419843
1.65477386934673 0.6614602794803798 -0.3070861330108473
1.65678391959799 0.6495737490911049 -0.3390432779922859
1.65879396984925 0.635976514735766 -0.3707778992663089
1.6608040201005 0.6204727314016412 -0.4024796758769725
1.66281407035176 0.6027870660326867 -0.4342752655029733
1.66482412060302 0.5825650740464021 -0.46619648014278847
1.66683417085427 0.5593705432612542 -0.49813250821416494
1.66884422110553 0.5326816486425663 -0.5297535575183103
1.67085427135678 0.5018943649816093 -0.5603900834561071
1.67286432160804 0.4663585235676343 -0.5888626103488852
1.6748743718593 0.4255027961534151 -0.6133172883799104
1.67688442211055 0.3791190314075228 -0.6312675361778853
1.67889447236181 0.3277592700510302 -0.6401300340845089
1.68090452261307 0.27292396840978966 -0.6381397882631361
1.68291457286432 0.21674827521854323 -0.6248681233366894
1.68492462311558 0.16144444840092956 -0.6009314931543012
1.68693467336683 0.10895072445080972 -0.5674131367610029
1.68894472361809 0.06085627954060653 -0.5255021403356972
1.69095477386935 0.01844744266359395 -0.47637581254579864
1.6929648241206 -0.017231171437049206 -0.4211918263886604
1.69497487437186 -0.045329712089491055 -0.3611073417823051
1.69698492462312 -0.06515956365062334 -0.2972995755100682
1.69899497487437 -0.07617019027049075 -0.23098728926482015
1.70100502512563 -0.07793929887789589 -0.16345698057483876
1.70301507537688 -0.07018242409772575 -0.09609138449667497
1.70502512562814 -0.052782533805855875 -0.03039205272907995
1.7070351758794 -0.025833378847360894 0.032007965687670004
1.70904522613065 0.010303331213317363 0.08933919178172522
1.71105527638191 0.05491423843860992 0.1397102051098617
1.71306532663317 0.10682358835943105 0.1811828324216576
1.71507537688442 0.16429923348401004 0.211954302686808
1.71708542713568 0.2250560273220414 0.23064752394780585
1.71909547738693 0.28642437711612684 0.23663784867251492
1.7211055276381901 0.3456843204246142 0.23028626652980255
1.72311557788945 0.40047088028265665 0.2129479183548448
1.7251256281407 0.4490946541931736 0.18671577274228374
1.7271356783919602 0.4906585384074597 0.15400268528469904
1.72914572864322 0.524969458967116 0.11714011689955252
1.73115577889447 0.5523389194792984 0.07811888467323977
1.73316582914573 0.5733745353682352 0.03849007447249433
1.73517587939699 0.588818175548104 -0.000623543831016221
1.73718592964824 0.5994407934692626 -0.0384646249824464
1.7391959798995 0.6059818910689924 -0.07456665197173445
1.74120603015075 0.6091175798193833 -0.10868642143832646
1.74321608040201 0.609444761448133 -0.1407491327775081
1.74522613065327 0.6074736304316455 -0.1708054645931087
1.74723618090452 0.6036242333470391 -0.19899805986055505
1.74924623115578 0.5982249375089821 -0.22553479019691916
1.75125628140704 0.5915116035682163 -0.25066695470342154
1.75326633165829 0.5836258182399366 -0.2746728236719404
1.75527638190955 0.5746079703551155 -0.2978608055483736
1.7572864321608 0.5644887554033082 -0.3205843589478958
1.75929648241206 0.5532995392488185 -0.3426785644014361
1.76130653266332 0.5405752538501589 -0.364629167826633
1.76331658291457 0.5261924787451956 -0.3865485236859629
1.76532663316583 0.5099923752484592 -0.40833268050112936
1.76733668341709 0.49271160837076716 -0.4297450421811678
1.76934673366834 0.47044231727836866 -0.4550710544272109
1.7713567839196 0.4442606918442736 -0.4765080156730041
1.77336683417085 0.41547405968520695 -0.4970838242227701
1.77537688442211 0.3827435901440656 -0.5162407514883107
1.77738693467337 0.3456478297061434 -0.5329535362875022
1.77939698492462 0.3040172222731842 -0.5459473614781628
1.78140703517588 0.25798170253040315 -0.5536659177851768
1.78341708542714 0.20810428431214278 -0.5543310702928135
1.78542713567839 0.1555157851493651 -0.5461248409713318
1.78743718592965 0.10197448470332784 -0.5274913068240431
1.7894472361809 0.04978036418188987 -0.49747714677441224
1.79145728643216 0.001539610855054274 -0.45597136024131474
1.79346733668342 -0.040134388869663015 -0.4037490660963918
1.79547738693467 -0.07287033630118235 -0.34234792839151
1.79748743718593 -0.0946880672535634 -0.27388998517473157
1.79949748743719 -0.10408161343657074 -0.200940892280114
1.8015075376884397 -0.10010294989355956 -0.1264163785466765
1.8035175879397 -0.08247929245678493 -0.05348053509574574
1.80552763819095 -0.051736214469460175 0.01462487229626486
1.8075376884422099 -0.009260978997994388 0.07483611988144506
1.80954773869347 0.04275228262113999 0.12456836341639682
1.81155778894472 0.10149256323597305 0.1619895395788413
1.81356783919598 0.1638264542611383 0.18619924291360665
1.81557788944724 0.2266361877064467 0.19727383320678385
1.81758793969849 0.2871342532786804 0.19617416681064914
1.81959798994975 0.34309902761739014 0.18454164376937615
1.82160804020101 0.3929980194870788 0.16442943795013426
1.82361809045226 0.43599433270031823 0.1380258727478919
1.82562814070352 0.4718601928159976 0.10742071402623997
1.82763819095477 0.5008379139016563 0.07444396027170697
1.82964824120603 0.5234882589937123 0.040581183123496595
1.83165829145729 0.5405536775336457 0.0069512496834079505
1.83366834170854 0.5528488601759705 -0.025674368836167912
1.8356783919598 0.561180047796794 -0.056829481339162095
1.83768844221106 0.5662890884352579 -0.08630153157441679
1.83969849246231 0.5688168172338113 -0.11407834350517573
1.84170854271357 0.5692808661106471 -0.14029735010993805
1.84371859296482 0.5680640893629312 -0.16519908412612294
1.84572864321608 0.5654108012557869 -0.18908541095502404
1.84773869346734 0.5614288381143995 -0.21228223344767364
1.84974874371859 0.5560961588927794 -0.23510591982613974
1.85175879396985 0.5492713844418136 -0.2578324031490323
1.8537688442211102 0.5407083829925216 -0.2806677846412044
1.85577889447236 0.5300756934233317 -0.30371938247472546
1.85778894472362 0.5169821402865508 -0.32696651732820575
1.85979899497487 0.5010103398620609 -0.3502309062871813
1.86180904522613 0.4817598941608657 -0.37314739708526856
1.86381909547739 0.4589019561066092 -0.39513722296466264
1.86582914572864 0.43224642904155086 -0.4153888087064446
1.8678391959799 0.401821578047729 -0.43285666021351443
1.86984924623116 0.36796115967126164 -0.446297389909216
1.87185929648241 0.331383281554063 -0.45436930183595753
1.87386934673367 0.29322836030292215 -0.4558153113402563
1.8758793969849197 0.25501258110760133 -0.44971208482563785
1.87788944723618 0.21847153298186095 -0.43570798313452674
1.87989949748744 0.1853238256653657 -0.4141412202025102
1.8819095477386898 0.1570367506566636 -0.385980380573853
1.88391959798995 0.1346713909645206 -0.3526286656032431
1.88592964824121 0.11883032042088677 -0.3156864126932287
1.88793969849246 0.10968679665916452 -0.27674362312248363
1.88994974874372 0.1070671004711993 -0.23723079316667176
1.89195979899497 0.11056217132148644 -0.1983351906534705
1.89396984924623 0.11964224544061622 -0.16097911769983253
1.89597989949749 0.13375451085835652 -0.12584157691655784
1.89798994974874 0.15240867648209655 -0.0934053196470691
1.9 0.17526225864509123 -0.06404614525033143
